
T2C68 000:313 SEGGER J-Link V5.02f Log File (0000ms, 0284ms total)
T2C68 000:313 DLL Compiled: Oct  2 2015 20:51:34 (0000ms, 0284ms total)
T2C68 000:313 Logging started @ 2023-02-16 19:53 (0000ms, 0284ms total)
T2C68 000:313 JLINK_SetWarnOutHandler(...) (0000ms, 0284ms total)
T2C68 000:313 JLINK_OpenEx(...)
Firmware: J-Link ARM-OB STM32 compiled Aug 22 2012 19:52:04
Hardware: V7.00
S/N: 20090929
Feature(s): RDI,FlashDL,FlashBP,JFlash,GDBFull  returns O.K. (0281ms, 0565ms total)
T2C68 000:594 JLINK_SetErrorOutHandler(...) (0000ms, 0565ms total)
T2C68 000:594 JLINK_ExecCommand("ProjectFile = "F:\40_50_S02A11-C3\S02A11-C3_50ZL\s02a11-c3_50zl\S02A11-C3_ZLMotor\MDK-ARM\JLinkSettings.ini"", ...)Device "UNSPECIFIED" selected.  returns 0x00 (0006ms, 0571ms total)
T2C68 000:606 JLINK_ExecCommand("Device = GD32F407VE", ...)Device "UNSPECIFIED" selected.  returns 0x00 (0018ms, 0589ms total)
T2C68 000:624 JLINK_ExecCommand("DisableConnectionTimeout", ...)  returns 0x01 (0000ms, 0589ms total)
T2C68 000:624 JLINK_GetHardwareVersion()  returns 0x11170 (0000ms, 0589ms total)
T2C68 000:624 JLINK_GetDLLVersion()  returns 50206 (0000ms, 0589ms total)
T2C68 000:624 JLINK_GetFirmwareString(...) (0000ms, 0589ms total)
T2C68 000:640 JLINK_GetDLLVersion()  returns 50206 (0000ms, 0589ms total)
T2C68 000:640 JLINK_GetCompileDateTime() (0000ms, 0589ms total)
T2C68 000:642 JLINK_GetFirmwareString(...) (0000ms, 0589ms total)
T2C68 000:645 JLINK_GetHardwareVersion()  returns 0x11170 (0000ms, 0589ms total)
T2C68 000:654 JLINK_TIF_Select(JLINKARM_TIF_SWD)  returns 0x00 (0001ms, 0590ms total)
T2C68 000:655 JLINK_SetSpeed(5000) (0000ms, 0590ms total)
T2C68 000:655 JLINK_GetId() >0x108 TIF>Found SWD-DP with ID 0x2BA01477 >0x0D TIF> >0x21 TIF> >0x0D TIF> >0x28 TIF> >0x0D TIF> >0x28 TIF> >0x0D TIF> >0x21 TIF> >0x0D TIF> >0x28 TIF> >0x0D TIF> >0x21 TIF> >0x0D TIF> >0x21 TIF> >0x0D TIF> >0x21 TIF> >0x0D TIF> >0x21 TIF> >0x0D TIF> >0x28 TIF> >0x0D TIF> >0x28 TIF> >0x0D TIF> >0x21 TIF> >0x0D TIF> >0x28 TIF> >0x0D TIF> >0x28 TIF> >0x0D TIF> >0x28 TIF> >0x0D TIF> >0x21 TIF> >0x0D TIF> >0x21 TIF> >0x0D TIF> >0x28 TIF> >0x0D TIF> >0x21 TIF> >0x0D TIF>
 >0x21 TIF>Found Cortex-M4 r0p1, Little endian. -- CPU_ReadMem(4 bytes @ 0xE000EDF0) -- CPU_ReadMem(4 bytes @ 0xE0002000)FPUnit: 6 code (BP) slots and 2 literal slots -- CPU_ReadMem(4 bytes @ 0xE000EDFC) -- CPU_ReadMem(4 bytes @ 0xE0001000) -- CPU_WriteMem(4 bytes @ 0xE0001000) -- CPU_ReadMem(4 bytes @ 0xE000ED88) -- CPU_WriteMem(4 bytes @ 0xE000ED88) -- CPU_ReadMem(4 bytes @ 0xE000ED88) -- CPU_WriteMem(4 bytes @ 0xE000ED88)CoreSight components:ROMTbl 0 @ E00FF000 -- CPU_ReadMem(16 bytes @ 0xE00FF000)
 -- CPU_ReadMem(16 bytes @ 0xE000EFF0) -- CPU_ReadMem(16 bytes @ 0xE000EFE0)ROMTbl 0 [0]: FFF0F000, CID: B105E00D, PID: 000BB00C SCS -- CPU_ReadMem(16 bytes @ 0xE0001FF0) -- CPU_ReadMem(16 bytes @ 0xE0001FE0)ROMTbl 0 [1]: FFF02000, CID: B105E00D, PID: 003BB002 DWT -- CPU_ReadMem(16 bytes @ 0xE0002FF0) -- CPU_ReadMem(16 bytes @ 0xE0002FE0)ROMTbl 0 [2]: FFF03000, CID: B105E00D, PID: 002BB003 FPB -- CPU_ReadMem(16 bytes @ 0xE0000FF0) -- CPU_ReadMem(16 bytes @ 0xE0000FE0)
ROMTbl 0 [3]: FFF01000, CID: B105E00D, PID: 003BB001 ITM -- CPU_ReadMem(16 bytes @ 0xE00FF010) -- CPU_ReadMem(16 bytes @ 0xE0040FF0) -- CPU_ReadMem(16 bytes @ 0xE0040FE0)ROMTbl 0 [4]: FFF41000, CID: B105900D, PID: 000BB9A1 TPIU -- CPU_ReadMem(16 bytes @ 0xE0041FF0) -- CPU_ReadMem(16 bytes @ 0xE0041FE0)ROMTbl 0 [5]: FFF42000, CID: 00000000, PID: 00000000 ??? >0x0D TIF> >0x21 TIF>  returns 0x2BA01477 (0057ms, 0647ms total)
T2C68 000:712 JLINK_GetDLLVersion()  returns 50206 (0000ms, 0647ms total)
T2C68 000:712 JLINK_CORE_GetFound()  returns 0xE0000FF (0000ms, 0647ms total)
T2C68 000:712 JLINK_GetDebugInfo(0x100) -- Value=0xE00FF003  returns 0x00 (0000ms, 0647ms total)
T2C68 000:714 JLINK_GetDebugInfo(0x100) -- Value=0xE00FF003  returns 0x00 (0000ms, 0647ms total)
T2C68 000:714 JLINK_GetDebugInfo(0x101) -- Value=0x00000000  returns 0x00 (0000ms, 0647ms total)
T2C68 000:714 JLINK_ReadMem (0xE0041FF0, 0x0010 Bytes, ...) -- CPU is running -- CPU_ReadMem(16 bytes @ 0xE0041FF0) - Data: 00 00 00 00 00 00 00 00 00 00 00 00 00 00 00 00  returns 0x00 (0001ms, 0648ms total)
T2C68 000:715 JLINK_GetDebugInfo(0x102) -- Value=0x00000000  returns 0x00 (0000ms, 0648ms total)
T2C68 000:715 JLINK_GetDebugInfo(0x103) -- Value=0xE0040000  returns 0x00 (0000ms, 0648ms total)
T2C68 000:715 JLINK_GetDebugInfo(0x104) -- Value=0xE0000000  returns 0x00 (0000ms, 0648ms total)
T2C68 000:715 JLINK_GetDebugInfo(0x105) -- Value=0xE0001000  returns 0x00 (0000ms, 0648ms total)
T2C68 000:715 JLINK_GetDebugInfo(0x106) -- Value=0xE0002000  returns 0x00 (0000ms, 0648ms total)
T2C68 000:715 JLINK_GetDebugInfo(0x107) -- Value=0xE000E000  returns 0x00 (0000ms, 0648ms total)
T2C68 000:715 JLINK_GetDebugInfo(0x10C) -- Value=0xE000EDF0  returns 0x00 (0000ms, 0648ms total)
T2C68 000:715 JLINK_ReadMemU32(0xE000EF40, 0x0001 Items, ...) -- CPU is running -- CPU_ReadMem(4 bytes @ 0xE000EF40) - Data: 21 00 11 10  returns 0x01 (0000ms, 0648ms total)
T2C68 000:715 JLINK_ReadMemU32(0xE000EF44, 0x0001 Items, ...) -- CPU is running -- CPU_ReadMem(4 bytes @ 0xE000EF44) - Data: 11 00 00 11  returns 0x01 (0001ms, 0649ms total)
T2C68 000:716 JLINK_ReadMemU32(0xE000ED00, 0x0001 Items, ...) -- CPU is running -- CPU_ReadMem(4 bytes @ 0xE000ED00) - Data: 41 C2 0F 41  returns 0x01 (0000ms, 0649ms total)
T2C68 000:716 JLINK_SetResetType(JLINKARM_RESET_TYPE_NORMAL)  returns JLINKARM_RESET_TYPE_NORMAL (0000ms, 0649ms total)
T2C68 000:716 JLINK_Reset() -- CPU is running -- CPU_WriteMem(4 bytes @ 0xE000EDF0) -- CPU is running -- CPU_WriteMem(4 bytes @ 0xE000EDFC) >0x35 TIF> -- CPU is running -- CPU_WriteMem(4 bytes @ 0xE000ED0C) -- CPU is running -- CPU_ReadMem(4 bytes @ 0xE000EDF0) -- CPU is running -- CPU_ReadMem(4 bytes @ 0xE000EDF0) -- CPU is running -- CPU_WriteMem(4 bytes @ 0xE000EDF0) -- CPU is running -- CPU_WriteMem(4 bytes @ 0xE000EDFC) -- CPU is running -- CPU_ReadMem(4 bytes @ 0xE000EDF0)
 -- CPU_WriteMem(4 bytes @ 0xE0002000) -- CPU_ReadMem(4 bytes @ 0xE000EDFC) -- CPU_ReadMem(4 bytes @ 0xE0001000) (0020ms, 0669ms total)
T2C68 000:736 JLINK_Halt()  returns 0x00 (0000ms, 0669ms total)
T2C68 000:736 JLINK_IsHalted()  returns TRUE (0000ms, 0669ms total)
T2C68 000:736 JLINK_ReadMemU32(0xE000EDF0, 0x0001 Items, ...) -- CPU_ReadMem(4 bytes @ 0xE000EDF0) - Data: 03 00 03 00  returns 0x01 (0000ms, 0669ms total)
T2C68 000:736 JLINK_WriteU32(0xE000EDF0, 0xA05F0003) -- CPU_WriteMem(4 bytes @ 0xE000EDF0)  returns 0x00 (0001ms, 0670ms total)
T2C68 000:737 JLINK_WriteU32(0xE000EDFC, 0x01000000) -- CPU_WriteMem(4 bytes @ 0xE000EDFC)  returns 0x00 (0001ms, 0671ms total)
T2C68 000:747 JLINK_GetHWStatus(...)  returns 0x00 (0001ms, 0672ms total)
T2C68 000:754 JLINK_GetNumBPUnits(Type = 0xFFFFFF00)  returns 0x06 (0000ms, 0672ms total)
T2C68 000:754 JLINK_GetNumBPUnits(Type = 0xF0)  returns 0x2000 (0000ms, 0672ms total)
T2C68 000:754 JLINK_GetNumWPUnits()  returns 0x04 (0000ms, 0672ms total)
T2C68 000:762 JLINK_GetSpeed()  returns 0xFA0 (0000ms, 0672ms total)
T2C68 000:767 JLINK_ReadMemU32(0xE000E004, 0x0001 Items, ...) -- CPU_ReadMem(4 bytes @ 0xE000E004) - Data: 02 00 00 00  returns 0x01 (0000ms, 0672ms total)
T2C68 000:767 JLINK_ReadMemU32(0xE000E004, 0x0001 Items, ...) -- CPU_ReadMem(4 bytes @ 0xE000E004) - Data: 02 00 00 00  returns 0x01 (0001ms, 0673ms total)
T2C68 000:768 JLINK_WriteMem(0xE0001000, 0x001C Bytes, ...) - Data: 01 00 00 00 00 00 00 00 00 00 00 00 00 00 00 00 ... -- CPU_WriteMem(28 bytes @ 0xE0001000)  returns 0x1C (0001ms, 0674ms total)
T2C68 000:769 JLINK_ReadMem (0xE0001000, 0x001C Bytes, ...) -- CPU_ReadMem(28 bytes @ 0xE0001000) - Data: 01 00 00 40 00 00 00 00 00 00 00 00 00 00 00 00 ...  returns 0x00 (0001ms, 0675ms total)
T2C68 000:770 JLINK_Halt()  returns 0x00 (0000ms, 0675ms total)
T2C68 000:770 JLINK_IsHalted()  returns TRUE (0000ms, 0675ms total)
T2C68 000:773 JLINK_WriteMem(0x20000000, 0x01D0 Bytes, ...) - Data: 00 BE 0A E0 0D 78 2D 06 68 40 08 24 40 00 00 D3 ... -- CPU_WriteMem(464 bytes @ 0x20000000)  returns 0x1D0 (0006ms, 0681ms total)
T2C68 000:779 JLINK_WriteReg(R0, 0x08000000)  returns 0x00 (0000ms, 0681ms total)
T2C68 000:779 JLINK_WriteReg(R1, 0x00B71B00)  returns 0x00 (0000ms, 0681ms total)
T2C68 000:779 JLINK_WriteReg(R2, 0x00000001)  returns 0x00 (0000ms, 0681ms total)
T2C68 000:779 JLINK_WriteReg(R3, 0x00000000)  returns 0x00 (0000ms, 0681ms total)
T2C68 000:779 JLINK_WriteReg(R4, 0x00000000)  returns 0x00 (0000ms, 0681ms total)
T2C68 000:779 JLINK_WriteReg(R5, 0x00000000)  returns 0x00 (0000ms, 0681ms total)
T2C68 000:779 JLINK_WriteReg(R6, 0x00000000)  returns 0x00 (0000ms, 0681ms total)
T2C68 000:779 JLINK_WriteReg(R7, 0x00000000)  returns 0x00 (0000ms, 0681ms total)
T2C68 000:779 JLINK_WriteReg(R8, 0x00000000)  returns 0x00 (0000ms, 0681ms total)
T2C68 000:779 JLINK_WriteReg(R9, 0x200001CC)  returns 0x00 (0000ms, 0681ms total)
T2C68 000:779 JLINK_WriteReg(R10, 0x00000000)  returns 0x00 (0000ms, 0681ms total)
T2C68 000:779 JLINK_WriteReg(R11, 0x00000000)  returns 0x00 (0000ms, 0681ms total)
T2C68 000:779 JLINK_WriteReg(R12, 0x00000000)  returns 0x00 (0000ms, 0681ms total)
T2C68 000:779 JLINK_WriteReg(R13 (SP), 0x20001000)  returns 0x00 (0000ms, 0681ms total)
T2C68 000:779 JLINK_WriteReg(R14, 0x20000001)  returns 0x00 (0000ms, 0681ms total)
T2C68 000:779 JLINK_WriteReg(R15 (PC), 0x20000070)  returns 0x00 (0000ms, 0681ms total)
T2C68 000:779 JLINK_WriteReg(XPSR, 0x01000000)  returns 0x00 (0000ms, 0681ms total)
T2C68 000:779 JLINK_WriteReg(MSP, 0x20001000)  returns 0x00 (0000ms, 0681ms total)
T2C68 000:779 JLINK_WriteReg(PSP, 0x20001000)  returns 0x00 (0000ms, 0681ms total)
T2C68 000:779 JLINK_WriteReg(CFBP, 0x00000000)  returns 0x00 (0000ms, 0681ms total)
T2C68 000:779 JLINK_SetBPEx(Addr = 0x20000000, Type = 0xFFFFFFF2) -- CPU_ReadMem(4 bytes @ 0x20000000) -- CPU_WriteMem(4 bytes @ 0x20000000) -- CPU_ReadMem(4 bytes @ 0x20000000) -- CPU_WriteMem(4 bytes @ 0x20000000) -- CPU_ReadMem(2 bytes @ 0x20000000)  returns 0x00000001 (0002ms, 0683ms total)
T2C68 000:781 JLINK_Go() -- CPU_WriteMem(2 bytes @ 0x20000000) -- CPU_ReadMem(4 bytes @ 0xE0001000) -- CPU_WriteMem(4 bytes @ 0xE0002008) -- CPU_WriteMem(4 bytes @ 0xE000200C) -- CPU_WriteMem(4 bytes @ 0xE0002010) -- CPU_WriteMem(4 bytes @ 0xE0002014) -- CPU_WriteMem(4 bytes @ 0xE0002018) -- CPU_WriteMem(4 bytes @ 0xE000201C) -- CPU_WriteMem(4 bytes @ 0xE0001004) (0007ms, 0690ms total)
T2C68 000:788 JLINK_IsHalted() -- CPU_ReadMem(2 bytes @ 0x20000000)  returns TRUE (0004ms, 0694ms total)
T2C68 000:792 JLINK_ReadReg(R15 (PC))  returns 0x20000000 (0000ms, 0690ms total)
T2C68 000:792 JLINK_ClrBPEx(BPHandle = 0x00000001)  returns 0x00 (0000ms, 0690ms total)
T2C68 000:792 JLINK_ReadReg(R0)  returns 0x00000000 (0000ms, 0690ms total)
T2C68 000:793 JLINK_WriteReg(R0, 0x08020000)  returns 0x00 (0000ms, 0690ms total)
T2C68 000:793 JLINK_WriteReg(R1, 0x00020000)  returns 0x00 (0000ms, 0690ms total)
T2C68 000:793 JLINK_WriteReg(R2, 0x000000FF)  returns 0x00 (0000ms, 0690ms total)
T2C68 000:793 JLINK_WriteReg(R3, 0x00000000)  returns 0x00 (0000ms, 0690ms total)
T2C68 000:793 JLINK_WriteReg(R4, 0x00000000)  returns 0x00 (0000ms, 0690ms total)
T2C68 000:793 JLINK_WriteReg(R5, 0x00000000)  returns 0x00 (0000ms, 0690ms total)
T2C68 000:793 JLINK_WriteReg(R6, 0x00000000)  returns 0x00 (0000ms, 0690ms total)
T2C68 000:793 JLINK_WriteReg(R7, 0x00000000)  returns 0x00 (0000ms, 0690ms total)
T2C68 000:793 JLINK_WriteReg(R8, 0x00000000)  returns 0x00 (0000ms, 0690ms total)
T2C68 000:793 JLINK_WriteReg(R9, 0x200001CC)  returns 0x00 (0000ms, 0690ms total)
T2C68 000:793 JLINK_WriteReg(R10, 0x00000000)  returns 0x00 (0000ms, 0690ms total)
T2C68 000:793 JLINK_WriteReg(R11, 0x00000000)  returns 0x00 (0000ms, 0690ms total)
T2C68 000:793 JLINK_WriteReg(R12, 0x00000000)  returns 0x00 (0000ms, 0690ms total)
T2C68 000:793 JLINK_WriteReg(R13 (SP), 0x20001000)  returns 0x00 (0000ms, 0690ms total)
T2C68 000:793 JLINK_WriteReg(R14, 0x20000001)  returns 0x00 (0000ms, 0690ms total)
T2C68 000:793 JLINK_WriteReg(R15 (PC), 0x20000020)  returns 0x00 (0000ms, 0690ms total)
T2C68 000:793 JLINK_WriteReg(XPSR, 0x01000000)  returns 0x00 (0000ms, 0690ms total)
T2C68 000:793 JLINK_WriteReg(MSP, 0x20001000)  returns 0x00 (0000ms, 0690ms total)
T2C68 000:793 JLINK_WriteReg(PSP, 0x20001000)  returns 0x00 (0000ms, 0690ms total)
T2C68 000:793 JLINK_WriteReg(CFBP, 0x00000000)  returns 0x00 (0000ms, 0690ms total)
T2C68 000:793 JLINK_SetBPEx(Addr = 0x20000000, Type = 0xFFFFFFF2)  returns 0x00000002 (0000ms, 0690ms total)
T2C68 000:793 JLINK_Go() -- CPU_ReadMem(4 bytes @ 0xE0001000) (0002ms, 0692ms total)
T2C68 000:795 JLINK_IsHalted()  returns FALSE (0001ms, 0693ms total)
T2C68 000:858 JLINK_IsHalted()  returns FALSE (0000ms, 0692ms total)
T2C68 000:860 JLINK_IsHalted()  returns FALSE (0000ms, 0692ms total)
T2C68 000:862 JLINK_IsHalted()  returns FALSE (0000ms, 0692ms total)
T2C68 000:864 JLINK_IsHalted()  returns FALSE (0000ms, 0692ms total)
T2C68 000:866 JLINK_IsHalted()  returns FALSE (0001ms, 0693ms total)
T2C68 000:869 JLINK_IsHalted()  returns FALSE (0000ms, 0692ms total)
T2C68 000:871 JLINK_IsHalted()  returns FALSE (0000ms, 0692ms total)
T2C68 000:873 JLINK_IsHalted()  returns FALSE (0000ms, 0692ms total)
T2C68 000:875 JLINK_IsHalted()  returns FALSE (0000ms, 0692ms total)
T2C68 000:877 JLINK_IsHalted()  returns FALSE (0000ms, 0692ms total)
T2C68 000:888 JLINK_IsHalted()  returns FALSE (0000ms, 0692ms total)
T2C68 000:890 JLINK_IsHalted()  returns FALSE (0000ms, 0692ms total)
T2C68 000:892 JLINK_IsHalted()  returns FALSE (0000ms, 0692ms total)
T2C68 000:894 JLINK_IsHalted()  returns FALSE (0000ms, 0692ms total)
T2C68 000:896 JLINK_IsHalted()  returns FALSE (0000ms, 0692ms total)
T2C68 000:898 JLINK_IsHalted()  returns FALSE (0001ms, 0693ms total)
T2C68 000:901 JLINK_IsHalted()  returns FALSE (0000ms, 0692ms total)
T2C68 000:903 JLINK_IsHalted()  returns FALSE (0000ms, 0692ms total)
T2C68 000:905 JLINK_IsHalted()  returns FALSE (0000ms, 0692ms total)
T2C68 000:907 JLINK_IsHalted()  returns FALSE (0000ms, 0692ms total)
T2C68 000:917 JLINK_IsHalted() -- CPU_ReadMem(2 bytes @ 0x20000000)  returns TRUE (0003ms, 0695ms total)
T2C68 000:920 JLINK_ReadReg(R15 (PC))  returns 0x20000000 (0000ms, 0692ms total)
T2C68 000:920 JLINK_ClrBPEx(BPHandle = 0x00000002)  returns 0x00 (0000ms, 0692ms total)
T2C68 000:920 JLINK_ReadReg(R0)  returns 0x00000000 (0000ms, 0692ms total)
T2C68 000:921 JLINK_WriteReg(R0, 0x00000001)  returns 0x00 (0000ms, 0692ms total)
T2C68 000:921 JLINK_WriteReg(R1, 0x00020000)  returns 0x00 (0000ms, 0692ms total)
T2C68 000:921 JLINK_WriteReg(R2, 0x000000FF)  returns 0x00 (0000ms, 0692ms total)
T2C68 000:921 JLINK_WriteReg(R3, 0x00000000)  returns 0x00 (0000ms, 0692ms total)
T2C68 000:921 JLINK_WriteReg(R4, 0x00000000)  returns 0x00 (0000ms, 0692ms total)
T2C68 000:921 JLINK_WriteReg(R5, 0x00000000)  returns 0x00 (0000ms, 0692ms total)
T2C68 000:921 JLINK_WriteReg(R6, 0x00000000)  returns 0x00 (0000ms, 0692ms total)
T2C68 000:921 JLINK_WriteReg(R7, 0x00000000)  returns 0x00 (0000ms, 0692ms total)
T2C68 000:921 JLINK_WriteReg(R8, 0x00000000)  returns 0x00 (0000ms, 0692ms total)
T2C68 000:921 JLINK_WriteReg(R9, 0x200001CC)  returns 0x00 (0000ms, 0692ms total)
T2C68 000:921 JLINK_WriteReg(R10, 0x00000000)  returns 0x00 (0000ms, 0692ms total)
T2C68 000:921 JLINK_WriteReg(R11, 0x00000000)  returns 0x00 (0000ms, 0692ms total)
T2C68 000:921 JLINK_WriteReg(R12, 0x00000000)  returns 0x00 (0000ms, 0692ms total)
T2C68 000:921 JLINK_WriteReg(R13 (SP), 0x20001000)  returns 0x00 (0000ms, 0692ms total)
T2C68 000:921 JLINK_WriteReg(R14, 0x20000001)  returns 0x00 (0000ms, 0692ms total)
T2C68 000:921 JLINK_WriteReg(R15 (PC), 0x200000AC)  returns 0x00 (0000ms, 0692ms total)
T2C68 000:921 JLINK_WriteReg(XPSR, 0x01000000)  returns 0x00 (0000ms, 0692ms total)
T2C68 000:921 JLINK_WriteReg(MSP, 0x20001000)  returns 0x00 (0000ms, 0692ms total)
T2C68 000:921 JLINK_WriteReg(PSP, 0x20001000)  returns 0x00 (0000ms, 0692ms total)
T2C68 000:921 JLINK_WriteReg(CFBP, 0x00000000)  returns 0x00 (0000ms, 0692ms total)
T2C68 000:921 JLINK_SetBPEx(Addr = 0x20000000, Type = 0xFFFFFFF2)  returns 0x00000003 (0000ms, 0692ms total)
T2C68 000:921 JLINK_Go() -- CPU_ReadMem(4 bytes @ 0xE0001000) (0002ms, 0694ms total)
T2C68 000:924 JLINK_IsHalted() -- CPU_ReadMem(2 bytes @ 0x20000000)  returns TRUE (0003ms, 0697ms total)
T2C68 000:927 JLINK_ReadReg(R15 (PC))  returns 0x20000000 (0000ms, 0694ms total)
T2C68 000:927 JLINK_ClrBPEx(BPHandle = 0x00000003)  returns 0x00 (0000ms, 0694ms total)
T2C68 000:927 JLINK_ReadReg(R0)  returns 0x00000000 (0000ms, 0694ms total)
T2C68 000:985 JLINK_WriteMem(0x20000000, 0x01D0 Bytes, ...) - Data: 00 BE 0A E0 0D 78 2D 06 68 40 08 24 40 00 00 D3 ... -- CPU_WriteMem(464 bytes @ 0x20000000)  returns 0x1D0 (0005ms, 0699ms total)
T2C68 000:990 JLINK_WriteReg(R0, 0x08000000)  returns 0x00 (0000ms, 0699ms total)
T2C68 000:990 JLINK_WriteReg(R1, 0x00B71B00)  returns 0x00 (0000ms, 0699ms total)
T2C68 000:990 JLINK_WriteReg(R2, 0x00000002)  returns 0x00 (0000ms, 0699ms total)
T2C68 000:990 JLINK_WriteReg(R3, 0x00000000)  returns 0x00 (0000ms, 0699ms total)
T2C68 000:990 JLINK_WriteReg(R4, 0x00000000)  returns 0x00 (0000ms, 0699ms total)
T2C68 000:990 JLINK_WriteReg(R5, 0x00000000)  returns 0x00 (0000ms, 0699ms total)
T2C68 000:990 JLINK_WriteReg(R6, 0x00000000)  returns 0x00 (0000ms, 0699ms total)
T2C68 000:990 JLINK_WriteReg(R7, 0x00000000)  returns 0x00 (0000ms, 0699ms total)
T2C68 000:990 JLINK_WriteReg(R8, 0x00000000)  returns 0x00 (0000ms, 0699ms total)
T2C68 000:990 JLINK_WriteReg(R9, 0x200001CC)  returns 0x00 (0000ms, 0699ms total)
T2C68 000:990 JLINK_WriteReg(R10, 0x00000000)  returns 0x00 (0000ms, 0699ms total)
T2C68 000:990 JLINK_WriteReg(R11, 0x00000000)  returns 0x00 (0000ms, 0699ms total)
T2C68 000:990 JLINK_WriteReg(R12, 0x00000000)  returns 0x00 (0000ms, 0699ms total)
T2C68 000:990 JLINK_WriteReg(R13 (SP), 0x20001000)  returns 0x00 (0000ms, 0699ms total)
T2C68 000:990 JLINK_WriteReg(R14, 0x20000001)  returns 0x00 (0000ms, 0699ms total)
T2C68 000:990 JLINK_WriteReg(R15 (PC), 0x20000070)  returns 0x00 (0000ms, 0699ms total)
T2C68 000:990 JLINK_WriteReg(XPSR, 0x01000000)  returns 0x00 (0001ms, 0700ms total)
T2C68 000:991 JLINK_WriteReg(MSP, 0x20001000)  returns 0x00 (0000ms, 0700ms total)
T2C68 000:991 JLINK_WriteReg(PSP, 0x20001000)  returns 0x00 (0000ms, 0700ms total)
T2C68 000:991 JLINK_WriteReg(CFBP, 0x00000000)  returns 0x00 (0000ms, 0700ms total)
T2C68 000:991 JLINK_SetBPEx(Addr = 0x20000000, Type = 0xFFFFFFF2) -- CPU_ReadMem(4 bytes @ 0x20000000) -- CPU_WriteMem(4 bytes @ 0x20000000) -- CPU_ReadMem(4 bytes @ 0x20000000) -- CPU_WriteMem(4 bytes @ 0x20000000) -- CPU_ReadMem(2 bytes @ 0x20000000)  returns 0x00000004 (0003ms, 0703ms total)
T2C68 000:994 JLINK_Go() -- CPU_WriteMem(2 bytes @ 0x20000000) -- CPU_ReadMem(4 bytes @ 0xE0001000) (0003ms, 0706ms total)
T2C68 000:997 JLINK_IsHalted() -- CPU_ReadMem(2 bytes @ 0x20000000)  returns TRUE (0003ms, 0709ms total)
T2C68 001:000 JLINK_ReadReg(R15 (PC))  returns 0x20000000 (0000ms, 0706ms total)
T2C68 001:000 JLINK_ClrBPEx(BPHandle = 0x00000004)  returns 0x00 (0000ms, 0706ms total)
T2C68 001:000 JLINK_ReadReg(R0)  returns 0x00000000 (0000ms, 0706ms total)
T2C68 001:000 JLINK_WriteMem(0x200001D0, 0x0400 Bytes, ...) - Data: 00 DD 00 20 9D 01 02 08 A5 01 02 08 0D 5B 02 08 ... -- CPU_WriteMem(1024 bytes @ 0x200001D0)  returns 0x400 (0011ms, 0717ms total)
T2C68 001:011 JLINK_WriteReg(R0, 0x08020000)  returns 0x00 (0000ms, 0717ms total)
T2C68 001:011 JLINK_WriteReg(R1, 0x00000400)  returns 0x00 (0001ms, 0718ms total)
T2C68 001:012 JLINK_WriteReg(R2, 0x200001D0)  returns 0x00 (0000ms, 0718ms total)
T2C68 001:012 JLINK_WriteReg(R3, 0x00000000)  returns 0x00 (0000ms, 0718ms total)
T2C68 001:012 JLINK_WriteReg(R4, 0x00000000)  returns 0x00 (0000ms, 0718ms total)
T2C68 001:012 JLINK_WriteReg(R5, 0x00000000)  returns 0x00 (0000ms, 0718ms total)
T2C68 001:012 JLINK_WriteReg(R6, 0x00000000)  returns 0x00 (0000ms, 0718ms total)
T2C68 001:012 JLINK_WriteReg(R7, 0x00000000)  returns 0x00 (0000ms, 0718ms total)
T2C68 001:012 JLINK_WriteReg(R8, 0x00000000)  returns 0x00 (0000ms, 0718ms total)
T2C68 001:012 JLINK_WriteReg(R9, 0x200001CC)  returns 0x00 (0000ms, 0718ms total)
T2C68 001:012 JLINK_WriteReg(R10, 0x00000000)  returns 0x00 (0000ms, 0718ms total)
T2C68 001:012 JLINK_WriteReg(R11, 0x00000000)  returns 0x00 (0000ms, 0718ms total)
T2C68 001:012 JLINK_WriteReg(R12, 0x00000000)  returns 0x00 (0000ms, 0718ms total)
T2C68 001:012 JLINK_WriteReg(R13 (SP), 0x20001000)  returns 0x00 (0000ms, 0718ms total)
T2C68 001:012 JLINK_WriteReg(R14, 0x20000001)  returns 0x00 (0000ms, 0718ms total)
T2C68 001:012 JLINK_WriteReg(R15 (PC), 0x20000158)  returns 0x00 (0000ms, 0718ms total)
T2C68 001:012 JLINK_WriteReg(XPSR, 0x01000000)  returns 0x00 (0000ms, 0718ms total)
T2C68 001:012 JLINK_WriteReg(MSP, 0x20001000)  returns 0x00 (0000ms, 0718ms total)
T2C68 001:012 JLINK_WriteReg(PSP, 0x20001000)  returns 0x00 (0000ms, 0718ms total)
T2C68 001:012 JLINK_WriteReg(CFBP, 0x00000000)  returns 0x00 (0000ms, 0718ms total)
T2C68 001:012 JLINK_SetBPEx(Addr = 0x20000000, Type = 0xFFFFFFF2)  returns 0x00000005 (0000ms, 0718ms total)
T2C68 001:012 JLINK_Go() -- CPU_ReadMem(4 bytes @ 0xE0001000) (0002ms, 0720ms total)
T2C68 001:014 JLINK_IsHalted()  returns FALSE (0000ms, 0720ms total)
T2C68 001:036 JLINK_IsHalted() -- CPU_ReadMem(2 bytes @ 0x20000000)  returns TRUE (0003ms, 0723ms total)
T2C68 001:039 JLINK_ReadReg(R15 (PC))  returns 0x20000000 (0000ms, 0720ms total)
T2C68 001:039 JLINK_ClrBPEx(BPHandle = 0x00000005)  returns 0x00 (0000ms, 0720ms total)
T2C68 001:039 JLINK_ReadReg(R0)  returns 0x00000000 (0000ms, 0720ms total)
T2C68 001:040 JLINK_WriteMem(0x200001D0, 0x0400 Bytes, ...) - Data: 00 44 21 F0 00 41 00 94 4F F0 00 0B 23 F0 00 43 ... -- CPU_WriteMem(1024 bytes @ 0x200001D0)  returns 0x400 (0011ms, 0731ms total)
T2C68 001:051 JLINK_WriteReg(R0, 0x08020400)  returns 0x00 (0000ms, 0731ms total)
T2C68 001:051 JLINK_WriteReg(R1, 0x00000400)  returns 0x00 (0000ms, 0731ms total)
T2C68 001:051 JLINK_WriteReg(R2, 0x200001D0)  returns 0x00 (0000ms, 0731ms total)
T2C68 001:051 JLINK_WriteReg(R3, 0x00000000)  returns 0x00 (0000ms, 0731ms total)
T2C68 001:051 JLINK_WriteReg(R4, 0x00000000)  returns 0x00 (0000ms, 0731ms total)
T2C68 001:051 JLINK_WriteReg(R5, 0x00000000)  returns 0x00 (0000ms, 0731ms total)
T2C68 001:051 JLINK_WriteReg(R6, 0x00000000)  returns 0x00 (0000ms, 0731ms total)
T2C68 001:051 JLINK_WriteReg(R7, 0x00000000)  returns 0x00 (0000ms, 0731ms total)
T2C68 001:051 JLINK_WriteReg(R8, 0x00000000)  returns 0x00 (0000ms, 0731ms total)
T2C68 001:051 JLINK_WriteReg(R9, 0x200001CC)  returns 0x00 (0000ms, 0731ms total)
T2C68 001:051 JLINK_WriteReg(R10, 0x00000000)  returns 0x00 (0000ms, 0731ms total)
T2C68 001:051 JLINK_WriteReg(R11, 0x00000000)  returns 0x00 (0000ms, 0731ms total)
T2C68 001:051 JLINK_WriteReg(R12, 0x00000000)  returns 0x00 (0000ms, 0731ms total)
T2C68 001:051 JLINK_WriteReg(R13 (SP), 0x20001000)  returns 0x00 (0000ms, 0731ms total)
T2C68 001:051 JLINK_WriteReg(R14, 0x20000001)  returns 0x00 (0000ms, 0731ms total)
T2C68 001:051 JLINK_WriteReg(R15 (PC), 0x20000158)  returns 0x00 (0000ms, 0731ms total)
T2C68 001:051 JLINK_WriteReg(XPSR, 0x01000000)  returns 0x00 (0000ms, 0731ms total)
T2C68 001:051 JLINK_WriteReg(MSP, 0x20001000)  returns 0x00 (0000ms, 0731ms total)
T2C68 001:051 JLINK_WriteReg(PSP, 0x20001000)  returns 0x00 (0000ms, 0731ms total)
T2C68 001:051 JLINK_WriteReg(CFBP, 0x00000000)  returns 0x00 (0000ms, 0731ms total)
T2C68 001:051 JLINK_SetBPEx(Addr = 0x20000000, Type = 0xFFFFFFF2)  returns 0x00000006 (0000ms, 0731ms total)
T2C68 001:051 JLINK_Go() -- CPU_ReadMem(4 bytes @ 0xE0001000) (0002ms, 0733ms total)
T2C68 001:053 JLINK_IsHalted()  returns FALSE (0001ms, 0734ms total)
T2C68 001:056 JLINK_IsHalted()  returns FALSE (0000ms, 0733ms total)
T2C68 001:058 JLINK_IsHalted()  returns FALSE (0000ms, 0733ms total)
T2C68 001:060 JLINK_IsHalted()  returns FALSE (0000ms, 0733ms total)
T2C68 001:062 JLINK_IsHalted()  returns FALSE (0000ms, 0733ms total)
T2C68 001:064 JLINK_IsHalted()  returns FALSE (0000ms, 0733ms total)
T2C68 001:066 JLINK_IsHalted()  returns FALSE (0000ms, 0733ms total)
T2C68 001:068 JLINK_IsHalted() -- CPU_ReadMem(2 bytes @ 0x20000000)  returns TRUE (0003ms, 0736ms total)
T2C68 001:071 JLINK_ReadReg(R15 (PC))  returns 0x20000000 (0000ms, 0733ms total)
T2C68 001:071 JLINK_ClrBPEx(BPHandle = 0x00000006)  returns 0x00 (0000ms, 0733ms total)
T2C68 001:071 JLINK_ReadReg(R0)  returns 0x00000000 (0000ms, 0733ms total)
T2C68 001:072 JLINK_WriteMem(0x200001D0, 0x0400 Bytes, ...) - Data: 49 00 08 BF 20 F0 01 00 10 BC 70 47 10 B5 14 1E ... -- CPU_WriteMem(1024 bytes @ 0x200001D0)  returns 0x400 (0011ms, 0744ms total)
T2C68 001:083 JLINK_WriteReg(R0, 0x08020800)  returns 0x00 (0000ms, 0744ms total)
T2C68 001:083 JLINK_WriteReg(R1, 0x00000400)  returns 0x00 (0000ms, 0744ms total)
T2C68 001:083 JLINK_WriteReg(R2, 0x200001D0)  returns 0x00 (0000ms, 0744ms total)
T2C68 001:083 JLINK_WriteReg(R3, 0x00000000)  returns 0x00 (0000ms, 0744ms total)
T2C68 001:083 JLINK_WriteReg(R4, 0x00000000)  returns 0x00 (0000ms, 0744ms total)
T2C68 001:083 JLINK_WriteReg(R5, 0x00000000)  returns 0x00 (0000ms, 0744ms total)
T2C68 001:083 JLINK_WriteReg(R6, 0x00000000)  returns 0x00 (0000ms, 0744ms total)
T2C68 001:083 JLINK_WriteReg(R7, 0x00000000)  returns 0x00 (0000ms, 0744ms total)
T2C68 001:083 JLINK_WriteReg(R8, 0x00000000)  returns 0x00 (0000ms, 0744ms total)
T2C68 001:083 JLINK_WriteReg(R9, 0x200001CC)  returns 0x00 (0000ms, 0744ms total)
T2C68 001:083 JLINK_WriteReg(R10, 0x00000000)  returns 0x00 (0000ms, 0744ms total)
T2C68 001:083 JLINK_WriteReg(R11, 0x00000000)  returns 0x00 (0000ms, 0744ms total)
T2C68 001:083 JLINK_WriteReg(R12, 0x00000000)  returns 0x00 (0000ms, 0744ms total)
T2C68 001:083 JLINK_WriteReg(R13 (SP), 0x20001000)  returns 0x00 (0000ms, 0744ms total)
T2C68 001:083 JLINK_WriteReg(R14, 0x20000001)  returns 0x00 (0000ms, 0744ms total)
T2C68 001:083 JLINK_WriteReg(R15 (PC), 0x20000158)  returns 0x00 (0000ms, 0744ms total)
T2C68 001:083 JLINK_WriteReg(XPSR, 0x01000000)  returns 0x00 (0000ms, 0744ms total)
T2C68 001:083 JLINK_WriteReg(MSP, 0x20001000)  returns 0x00 (0000ms, 0744ms total)
T2C68 001:083 JLINK_WriteReg(PSP, 0x20001000)  returns 0x00 (0000ms, 0744ms total)
T2C68 001:083 JLINK_WriteReg(CFBP, 0x00000000)  returns 0x00 (0000ms, 0744ms total)
T2C68 001:083 JLINK_SetBPEx(Addr = 0x20000000, Type = 0xFFFFFFF2)  returns 0x00000007 (0000ms, 0744ms total)
T2C68 001:083 JLINK_Go() -- CPU_ReadMem(4 bytes @ 0xE0001000) (0002ms, 0746ms total)
T2C68 001:085 JLINK_IsHalted()  returns FALSE (0001ms, 0747ms total)
T2C68 001:088 JLINK_IsHalted()  returns FALSE (0000ms, 0746ms total)
T2C68 001:090 JLINK_IsHalted()  returns FALSE (0000ms, 0746ms total)
T2C68 001:092 JLINK_IsHalted()  returns FALSE (0000ms, 0746ms total)
T2C68 001:094 JLINK_IsHalted()  returns FALSE (0000ms, 0746ms total)
T2C68 001:096 JLINK_IsHalted()  returns FALSE (0000ms, 0746ms total)
T2C68 001:098 JLINK_IsHalted()  returns FALSE (0000ms, 0746ms total)
T2C68 001:100 JLINK_IsHalted() -- CPU_ReadMem(2 bytes @ 0x20000000)  returns TRUE (0003ms, 0749ms total)
T2C68 001:103 JLINK_ReadReg(R15 (PC))  returns 0x20000000 (0000ms, 0746ms total)
T2C68 001:103 JLINK_ClrBPEx(BPHandle = 0x00000007)  returns 0x00 (0000ms, 0746ms total)
T2C68 001:103 JLINK_ReadReg(R0)  returns 0x00000000 (0000ms, 0746ms total)
T2C68 001:104 JLINK_WriteMem(0x200001D0, 0x0400 Bytes, ...) - Data: 80 B2 58 81 A0 28 D5 D3 BD E8 F0 01 70 47 00 00 ... -- CPU_WriteMem(1024 bytes @ 0x200001D0)  returns 0x400 (0011ms, 0757ms total)
T2C68 001:115 JLINK_WriteReg(R0, 0x08020C00)  returns 0x00 (0000ms, 0757ms total)
T2C68 001:115 JLINK_WriteReg(R1, 0x00000400)  returns 0x00 (0000ms, 0757ms total)
T2C68 001:115 JLINK_WriteReg(R2, 0x200001D0)  returns 0x00 (0000ms, 0757ms total)
T2C68 001:115 JLINK_WriteReg(R3, 0x00000000)  returns 0x00 (0000ms, 0757ms total)
T2C68 001:115 JLINK_WriteReg(R4, 0x00000000)  returns 0x00 (0000ms, 0757ms total)
T2C68 001:115 JLINK_WriteReg(R5, 0x00000000)  returns 0x00 (0000ms, 0757ms total)
T2C68 001:115 JLINK_WriteReg(R6, 0x00000000)  returns 0x00 (0000ms, 0757ms total)
T2C68 001:115 JLINK_WriteReg(R7, 0x00000000)  returns 0x00 (0000ms, 0757ms total)
T2C68 001:115 JLINK_WriteReg(R8, 0x00000000)  returns 0x00 (0000ms, 0757ms total)
T2C68 001:115 JLINK_WriteReg(R9, 0x200001CC)  returns 0x00 (0000ms, 0757ms total)
T2C68 001:115 JLINK_WriteReg(R10, 0x00000000)  returns 0x00 (0000ms, 0757ms total)
T2C68 001:115 JLINK_WriteReg(R11, 0x00000000)  returns 0x00 (0000ms, 0757ms total)
T2C68 001:115 JLINK_WriteReg(R12, 0x00000000)  returns 0x00 (0000ms, 0757ms total)
T2C68 001:115 JLINK_WriteReg(R13 (SP), 0x20001000)  returns 0x00 (0000ms, 0757ms total)
T2C68 001:115 JLINK_WriteReg(R14, 0x20000001)  returns 0x00 (0000ms, 0757ms total)
T2C68 001:115 JLINK_WriteReg(R15 (PC), 0x20000158)  returns 0x00 (0000ms, 0757ms total)
T2C68 001:115 JLINK_WriteReg(XPSR, 0x01000000)  returns 0x00 (0000ms, 0757ms total)
T2C68 001:115 JLINK_WriteReg(MSP, 0x20001000)  returns 0x00 (0000ms, 0757ms total)
T2C68 001:115 JLINK_WriteReg(PSP, 0x20001000)  returns 0x00 (0000ms, 0757ms total)
T2C68 001:115 JLINK_WriteReg(CFBP, 0x00000000)  returns 0x00 (0000ms, 0757ms total)
T2C68 001:115 JLINK_SetBPEx(Addr = 0x20000000, Type = 0xFFFFFFF2)  returns 0x00000008 (0000ms, 0757ms total)
T2C68 001:115 JLINK_Go() -- CPU_ReadMem(4 bytes @ 0xE0001000) (0002ms, 0759ms total)
T2C68 001:117 JLINK_IsHalted()  returns FALSE (0001ms, 0760ms total)
T2C68 001:130 JLINK_IsHalted()  returns FALSE (0000ms, 0759ms total)
T2C68 001:142 JLINK_IsHalted() -- CPU_ReadMem(2 bytes @ 0x20000000)  returns TRUE (0003ms, 0762ms total)
T2C68 001:145 JLINK_ReadReg(R15 (PC))  returns 0x20000000 (0000ms, 0759ms total)
T2C68 001:145 JLINK_ClrBPEx(BPHandle = 0x00000008)  returns 0x00 (0000ms, 0759ms total)
T2C68 001:145 JLINK_ReadReg(R0)  returns 0x00000000 (0000ms, 0759ms total)
T2C68 001:146 JLINK_WriteMem(0x200001D0, 0x0400 Bytes, ...) - Data: 61 1A 01 EE 21 0A 81 ED 06 0A 81 ED 05 0A C1 ED ... -- CPU_WriteMem(1024 bytes @ 0x200001D0)  returns 0x400 (0011ms, 0770ms total)
T2C68 001:157 JLINK_WriteReg(R0, 0x08021000)  returns 0x00 (0000ms, 0770ms total)
T2C68 001:157 JLINK_WriteReg(R1, 0x00000400)  returns 0x00 (0000ms, 0770ms total)
T2C68 001:157 JLINK_WriteReg(R2, 0x200001D0)  returns 0x00 (0000ms, 0770ms total)
T2C68 001:157 JLINK_WriteReg(R3, 0x00000000)  returns 0x00 (0000ms, 0770ms total)
T2C68 001:157 JLINK_WriteReg(R4, 0x00000000)  returns 0x00 (0000ms, 0770ms total)
T2C68 001:157 JLINK_WriteReg(R5, 0x00000000)  returns 0x00 (0000ms, 0770ms total)
T2C68 001:157 JLINK_WriteReg(R6, 0x00000000)  returns 0x00 (0000ms, 0770ms total)
T2C68 001:157 JLINK_WriteReg(R7, 0x00000000)  returns 0x00 (0000ms, 0770ms total)
T2C68 001:157 JLINK_WriteReg(R8, 0x00000000)  returns 0x00 (0000ms, 0770ms total)
T2C68 001:157 JLINK_WriteReg(R9, 0x200001CC)  returns 0x00 (0000ms, 0770ms total)
T2C68 001:157 JLINK_WriteReg(R10, 0x00000000)  returns 0x00 (0000ms, 0770ms total)
T2C68 001:157 JLINK_WriteReg(R11, 0x00000000)  returns 0x00 (0000ms, 0770ms total)
T2C68 001:157 JLINK_WriteReg(R12, 0x00000000)  returns 0x00 (0000ms, 0770ms total)
T2C68 001:157 JLINK_WriteReg(R13 (SP), 0x20001000)  returns 0x00 (0000ms, 0770ms total)
T2C68 001:157 JLINK_WriteReg(R14, 0x20000001)  returns 0x00 (0000ms, 0770ms total)
T2C68 001:157 JLINK_WriteReg(R15 (PC), 0x20000158)  returns 0x00 (0000ms, 0770ms total)
T2C68 001:157 JLINK_WriteReg(XPSR, 0x01000000)  returns 0x00 (0000ms, 0770ms total)
T2C68 001:157 JLINK_WriteReg(MSP, 0x20001000)  returns 0x00 (0000ms, 0770ms total)
T2C68 001:157 JLINK_WriteReg(PSP, 0x20001000)  returns 0x00 (0000ms, 0770ms total)
T2C68 001:157 JLINK_WriteReg(CFBP, 0x00000000)  returns 0x00 (0000ms, 0770ms total)
T2C68 001:157 JLINK_SetBPEx(Addr = 0x20000000, Type = 0xFFFFFFF2)  returns 0x00000009 (0000ms, 0770ms total)
T2C68 001:157 JLINK_Go() -- CPU_ReadMem(4 bytes @ 0xE0001000) (0002ms, 0772ms total)
T2C68 001:159 JLINK_IsHalted()  returns FALSE (0001ms, 0773ms total)
T2C68 001:163 JLINK_IsHalted()  returns FALSE (0000ms, 0772ms total)
T2C68 001:165 JLINK_IsHalted()  returns FALSE (0000ms, 0772ms total)
T2C68 001:167 JLINK_IsHalted()  returns FALSE (0000ms, 0772ms total)
T2C68 001:169 JLINK_IsHalted()  returns FALSE (0000ms, 0772ms total)
T2C68 001:171 JLINK_IsHalted()  returns FALSE (0000ms, 0772ms total)
T2C68 001:173 JLINK_IsHalted()  returns FALSE (0000ms, 0772ms total)
T2C68 001:175 JLINK_IsHalted() -- CPU_ReadMem(2 bytes @ 0x20000000)  returns TRUE (0003ms, 0775ms total)
T2C68 001:178 JLINK_ReadReg(R15 (PC))  returns 0x20000000 (0000ms, 0772ms total)
T2C68 001:178 JLINK_ClrBPEx(BPHandle = 0x00000009)  returns 0x00 (0000ms, 0772ms total)
T2C68 001:178 JLINK_ReadReg(R0)  returns 0x00000000 (0000ms, 0772ms total)
T2C68 001:179 JLINK_WriteMem(0x200001D0, 0x0400 Bytes, ...) - Data: 20 46 10 F0 A1 FE 61 5D B1 EB 10 2F 06 D1 61 19 ... -- CPU_WriteMem(1024 bytes @ 0x200001D0)  returns 0x400 (0011ms, 0783ms total)
T2C68 001:190 JLINK_WriteReg(R0, 0x08021400)  returns 0x00 (0000ms, 0783ms total)
T2C68 001:190 JLINK_WriteReg(R1, 0x00000400)  returns 0x00 (0000ms, 0783ms total)
T2C68 001:190 JLINK_WriteReg(R2, 0x200001D0)  returns 0x00 (0000ms, 0783ms total)
T2C68 001:190 JLINK_WriteReg(R3, 0x00000000)  returns 0x00 (0000ms, 0783ms total)
T2C68 001:190 JLINK_WriteReg(R4, 0x00000000)  returns 0x00 (0000ms, 0783ms total)
T2C68 001:190 JLINK_WriteReg(R5, 0x00000000)  returns 0x00 (0000ms, 0783ms total)
T2C68 001:190 JLINK_WriteReg(R6, 0x00000000)  returns 0x00 (0000ms, 0783ms total)
T2C68 001:190 JLINK_WriteReg(R7, 0x00000000)  returns 0x00 (0000ms, 0783ms total)
T2C68 001:190 JLINK_WriteReg(R8, 0x00000000)  returns 0x00 (0000ms, 0783ms total)
T2C68 001:190 JLINK_WriteReg(R9, 0x200001CC)  returns 0x00 (0000ms, 0783ms total)
T2C68 001:190 JLINK_WriteReg(R10, 0x00000000)  returns 0x00 (0000ms, 0783ms total)
T2C68 001:190 JLINK_WriteReg(R11, 0x00000000)  returns 0x00 (0000ms, 0783ms total)
T2C68 001:190 JLINK_WriteReg(R12, 0x00000000)  returns 0x00 (0000ms, 0783ms total)
T2C68 001:190 JLINK_WriteReg(R13 (SP), 0x20001000)  returns 0x00 (0000ms, 0783ms total)
T2C68 001:190 JLINK_WriteReg(R14, 0x20000001)  returns 0x00 (0000ms, 0783ms total)
T2C68 001:190 JLINK_WriteReg(R15 (PC), 0x20000158)  returns 0x00 (0000ms, 0783ms total)
T2C68 001:190 JLINK_WriteReg(XPSR, 0x01000000)  returns 0x00 (0000ms, 0783ms total)
T2C68 001:190 JLINK_WriteReg(MSP, 0x20001000)  returns 0x00 (0000ms, 0783ms total)
T2C68 001:190 JLINK_WriteReg(PSP, 0x20001000)  returns 0x00 (0000ms, 0783ms total)
T2C68 001:190 JLINK_WriteReg(CFBP, 0x00000000)  returns 0x00 (0000ms, 0783ms total)
T2C68 001:190 JLINK_SetBPEx(Addr = 0x20000000, Type = 0xFFFFFFF2)  returns 0x0000000A (0000ms, 0783ms total)
T2C68 001:190 JLINK_Go() -- CPU_ReadMem(4 bytes @ 0xE0001000) (0002ms, 0785ms total)
T2C68 001:192 JLINK_IsHalted()  returns FALSE (0001ms, 0786ms total)
T2C68 001:195 JLINK_IsHalted()  returns FALSE (0000ms, 0785ms total)
T2C68 001:197 JLINK_IsHalted()  returns FALSE (0000ms, 0785ms total)
T2C68 001:199 JLINK_IsHalted()  returns FALSE (0000ms, 0785ms total)
T2C68 001:201 JLINK_IsHalted()  returns FALSE (0000ms, 0785ms total)
T2C68 001:203 JLINK_IsHalted()  returns FALSE (0000ms, 0785ms total)
T2C68 001:205 JLINK_IsHalted()  returns FALSE (0000ms, 0785ms total)
T2C68 001:218 JLINK_IsHalted() -- CPU_ReadMem(2 bytes @ 0x20000000)  returns TRUE (0003ms, 0788ms total)
T2C68 001:221 JLINK_ReadReg(R15 (PC))  returns 0x20000000 (0000ms, 0785ms total)
T2C68 001:221 JLINK_ClrBPEx(BPHandle = 0x0000000A)  returns 0x00 (0000ms, 0785ms total)
T2C68 001:221 JLINK_ReadReg(R0)  returns 0x00000000 (0000ms, 0785ms total)
T2C68 001:221 JLINK_WriteMem(0x200001D0, 0x0400 Bytes, ...) - Data: 40 1E 25 F8 14 00 57 49 DB F8 4C 00 A1 FB 00 10 ... -- CPU_WriteMem(1024 bytes @ 0x200001D0)  returns 0x400 (0012ms, 0797ms total)
T2C68 001:233 JLINK_WriteReg(R0, 0x08021800)  returns 0x00 (0000ms, 0797ms total)
T2C68 001:233 JLINK_WriteReg(R1, 0x00000400)  returns 0x00 (0000ms, 0797ms total)
T2C68 001:233 JLINK_WriteReg(R2, 0x200001D0)  returns 0x00 (0000ms, 0797ms total)
T2C68 001:233 JLINK_WriteReg(R3, 0x00000000)  returns 0x00 (0000ms, 0797ms total)
T2C68 001:233 JLINK_WriteReg(R4, 0x00000000)  returns 0x00 (0000ms, 0797ms total)
T2C68 001:233 JLINK_WriteReg(R5, 0x00000000)  returns 0x00 (0000ms, 0797ms total)
T2C68 001:233 JLINK_WriteReg(R6, 0x00000000)  returns 0x00 (0000ms, 0797ms total)
T2C68 001:233 JLINK_WriteReg(R7, 0x00000000)  returns 0x00 (0000ms, 0797ms total)
T2C68 001:233 JLINK_WriteReg(R8, 0x00000000)  returns 0x00 (0000ms, 0797ms total)
T2C68 001:233 JLINK_WriteReg(R9, 0x200001CC)  returns 0x00 (0000ms, 0797ms total)
T2C68 001:233 JLINK_WriteReg(R10, 0x00000000)  returns 0x00 (0000ms, 0797ms total)
T2C68 001:233 JLINK_WriteReg(R11, 0x00000000)  returns 0x00 (0000ms, 0797ms total)
T2C68 001:233 JLINK_WriteReg(R12, 0x00000000)  returns 0x00 (0000ms, 0797ms total)
T2C68 001:233 JLINK_WriteReg(R13 (SP), 0x20001000)  returns 0x00 (0000ms, 0797ms total)
T2C68 001:233 JLINK_WriteReg(R14, 0x20000001)  returns 0x00 (0000ms, 0797ms total)
T2C68 001:233 JLINK_WriteReg(R15 (PC), 0x20000158)  returns 0x00 (0000ms, 0797ms total)
T2C68 001:233 JLINK_WriteReg(XPSR, 0x01000000)  returns 0x00 (0000ms, 0797ms total)
T2C68 001:233 JLINK_WriteReg(MSP, 0x20001000)  returns 0x00 (0000ms, 0797ms total)
T2C68 001:233 JLINK_WriteReg(PSP, 0x20001000)  returns 0x00 (0000ms, 0797ms total)
T2C68 001:233 JLINK_WriteReg(CFBP, 0x00000000)  returns 0x00 (0000ms, 0797ms total)
T2C68 001:233 JLINK_SetBPEx(Addr = 0x20000000, Type = 0xFFFFFFF2)  returns 0x0000000B (0000ms, 0797ms total)
T2C68 001:233 JLINK_Go() -- CPU_ReadMem(4 bytes @ 0xE0001000) (0002ms, 0799ms total)
T2C68 001:235 JLINK_IsHalted()  returns FALSE (0001ms, 0800ms total)
T2C68 001:246 JLINK_IsHalted()  returns FALSE (0000ms, 0799ms total)
T2C68 001:248 JLINK_IsHalted()  returns FALSE (0000ms, 0799ms total)
T2C68 001:250 JLINK_IsHalted() -- CPU_ReadMem(2 bytes @ 0x20000000)  returns TRUE (0003ms, 0802ms total)
T2C68 001:253 JLINK_ReadReg(R15 (PC))  returns 0x20000000 (0000ms, 0799ms total)
T2C68 001:253 JLINK_ClrBPEx(BPHandle = 0x0000000B)  returns 0x00 (0000ms, 0799ms total)
T2C68 001:253 JLINK_ReadReg(R0)  returns 0x00000000 (0000ms, 0799ms total)
T2C68 001:253 JLINK_WriteMem(0x200001D0, 0x0400 Bytes, ...) - Data: EB FC 02 E0 02 20 05 F0 BF FB 30 7A 10 F0 04 0F ... -- CPU_WriteMem(1024 bytes @ 0x200001D0)  returns 0x400 (0012ms, 0811ms total)
T2C68 001:265 JLINK_WriteReg(R0, 0x08021C00)  returns 0x00 (0000ms, 0811ms total)
T2C68 001:265 JLINK_WriteReg(R1, 0x00000400)  returns 0x00 (0000ms, 0811ms total)
T2C68 001:265 JLINK_WriteReg(R2, 0x200001D0)  returns 0x00 (0000ms, 0811ms total)
T2C68 001:265 JLINK_WriteReg(R3, 0x00000000)  returns 0x00 (0000ms, 0811ms total)
T2C68 001:265 JLINK_WriteReg(R4, 0x00000000)  returns 0x00 (0000ms, 0811ms total)
T2C68 001:265 JLINK_WriteReg(R5, 0x00000000)  returns 0x00 (0000ms, 0811ms total)
T2C68 001:265 JLINK_WriteReg(R6, 0x00000000)  returns 0x00 (0000ms, 0811ms total)
T2C68 001:265 JLINK_WriteReg(R7, 0x00000000)  returns 0x00 (0000ms, 0811ms total)
T2C68 001:265 JLINK_WriteReg(R8, 0x00000000)  returns 0x00 (0000ms, 0811ms total)
T2C68 001:265 JLINK_WriteReg(R9, 0x200001CC)  returns 0x00 (0000ms, 0811ms total)
T2C68 001:265 JLINK_WriteReg(R10, 0x00000000)  returns 0x00 (0000ms, 0811ms total)
T2C68 001:265 JLINK_WriteReg(R11, 0x00000000)  returns 0x00 (0000ms, 0811ms total)
T2C68 001:265 JLINK_WriteReg(R12, 0x00000000)  returns 0x00 (0000ms, 0811ms total)
T2C68 001:265 JLINK_WriteReg(R13 (SP), 0x20001000)  returns 0x00 (0000ms, 0811ms total)
T2C68 001:265 JLINK_WriteReg(R14, 0x20000001)  returns 0x00 (0000ms, 0811ms total)
T2C68 001:265 JLINK_WriteReg(R15 (PC), 0x20000158)  returns 0x00 (0000ms, 0811ms total)
T2C68 001:265 JLINK_WriteReg(XPSR, 0x01000000)  returns 0x00 (0000ms, 0811ms total)
T2C68 001:265 JLINK_WriteReg(MSP, 0x20001000)  returns 0x00 (0000ms, 0811ms total)
T2C68 001:265 JLINK_WriteReg(PSP, 0x20001000)  returns 0x00 (0000ms, 0811ms total)
T2C68 001:265 JLINK_WriteReg(CFBP, 0x00000000)  returns 0x00 (0000ms, 0811ms total)
T2C68 001:265 JLINK_SetBPEx(Addr = 0x20000000, Type = 0xFFFFFFF2)  returns 0x0000000C (0000ms, 0811ms total)
T2C68 001:265 JLINK_Go() -- CPU_ReadMem(4 bytes @ 0xE0001000) (0002ms, 0813ms total)
T2C68 001:267 JLINK_IsHalted()  returns FALSE (0000ms, 0813ms total)
T2C68 001:269 JLINK_IsHalted()  returns FALSE (0000ms, 0813ms total)
T2C68 001:271 JLINK_IsHalted()  returns FALSE (0000ms, 0813ms total)
T2C68 001:273 JLINK_IsHalted()  returns FALSE (0000ms, 0813ms total)
T2C68 001:275 JLINK_IsHalted()  returns FALSE (0000ms, 0813ms total)
T2C68 001:277 JLINK_IsHalted()  returns FALSE (0000ms, 0813ms total)
T2C68 001:279 JLINK_IsHalted()  returns FALSE (0000ms, 0813ms total)
T2C68 001:281 JLINK_IsHalted()  returns FALSE (0000ms, 0813ms total)
T2C68 001:284 JLINK_IsHalted() -- CPU_ReadMem(2 bytes @ 0x20000000)  returns TRUE (0003ms, 0816ms total)
T2C68 001:287 JLINK_ReadReg(R15 (PC))  returns 0x20000000 (0000ms, 0813ms total)
T2C68 001:287 JLINK_ClrBPEx(BPHandle = 0x0000000C)  returns 0x00 (0000ms, 0813ms total)
T2C68 001:287 JLINK_ReadReg(R0)  returns 0x00000000 (0000ms, 0813ms total)
T2C68 001:288 JLINK_WriteMem(0x200001D0, 0x0400 Bytes, ...) - Data: 01 B2 A0 68 00 F0 94 F9 01 20 A0 73 F1 E7 C0 7B ... -- CPU_WriteMem(1024 bytes @ 0x200001D0)  returns 0x400 (0011ms, 0824ms total)
T2C68 001:299 JLINK_WriteReg(R0, 0x08022000)  returns 0x00 (0000ms, 0824ms total)
T2C68 001:299 JLINK_WriteReg(R1, 0x00000400)  returns 0x00 (0000ms, 0824ms total)
T2C68 001:299 JLINK_WriteReg(R2, 0x200001D0)  returns 0x00 (0000ms, 0824ms total)
T2C68 001:299 JLINK_WriteReg(R3, 0x00000000)  returns 0x00 (0000ms, 0824ms total)
T2C68 001:299 JLINK_WriteReg(R4, 0x00000000)  returns 0x00 (0000ms, 0824ms total)
T2C68 001:299 JLINK_WriteReg(R5, 0x00000000)  returns 0x00 (0000ms, 0824ms total)
T2C68 001:299 JLINK_WriteReg(R6, 0x00000000)  returns 0x00 (0000ms, 0824ms total)
T2C68 001:299 JLINK_WriteReg(R7, 0x00000000)  returns 0x00 (0000ms, 0824ms total)
T2C68 001:299 JLINK_WriteReg(R8, 0x00000000)  returns 0x00 (0000ms, 0824ms total)
T2C68 001:299 JLINK_WriteReg(R9, 0x200001CC)  returns 0x00 (0000ms, 0824ms total)
T2C68 001:299 JLINK_WriteReg(R10, 0x00000000)  returns 0x00 (0000ms, 0824ms total)
T2C68 001:299 JLINK_WriteReg(R11, 0x00000000)  returns 0x00 (0000ms, 0824ms total)
T2C68 001:299 JLINK_WriteReg(R12, 0x00000000)  returns 0x00 (0000ms, 0824ms total)
T2C68 001:299 JLINK_WriteReg(R13 (SP), 0x20001000)  returns 0x00 (0000ms, 0824ms total)
T2C68 001:299 JLINK_WriteReg(R14, 0x20000001)  returns 0x00 (0000ms, 0824ms total)
T2C68 001:299 JLINK_WriteReg(R15 (PC), 0x20000158)  returns 0x00 (0000ms, 0824ms total)
T2C68 001:299 JLINK_WriteReg(XPSR, 0x01000000)  returns 0x00 (0000ms, 0824ms total)
T2C68 001:299 JLINK_WriteReg(MSP, 0x20001000)  returns 0x00 (0000ms, 0824ms total)
T2C68 001:299 JLINK_WriteReg(PSP, 0x20001000)  returns 0x00 (0000ms, 0824ms total)
T2C68 001:299 JLINK_WriteReg(CFBP, 0x00000000)  returns 0x00 (0000ms, 0824ms total)
T2C68 001:299 JLINK_SetBPEx(Addr = 0x20000000, Type = 0xFFFFFFF2)  returns 0x0000000D (0000ms, 0824ms total)
T2C68 001:299 JLINK_Go() -- CPU_ReadMem(4 bytes @ 0xE0001000) (0002ms, 0826ms total)
T2C68 001:301 JLINK_IsHalted()  returns FALSE (0000ms, 0826ms total)
T2C68 001:303 JLINK_IsHalted()  returns FALSE (0000ms, 0826ms total)
T2C68 001:305 JLINK_IsHalted()  returns FALSE (0000ms, 0826ms total)
T2C68 001:307 JLINK_IsHalted()  returns FALSE (0000ms, 0826ms total)
T2C68 001:309 JLINK_IsHalted()  returns FALSE (0000ms, 0826ms total)
T2C68 001:311 JLINK_IsHalted()  returns FALSE (0000ms, 0826ms total)
T2C68 001:321 JLINK_IsHalted() -- CPU_ReadMem(2 bytes @ 0x20000000)  returns TRUE (0003ms, 0829ms total)
T2C68 001:324 JLINK_ReadReg(R15 (PC))  returns 0x20000000 (0000ms, 0826ms total)
T2C68 001:324 JLINK_ClrBPEx(BPHandle = 0x0000000D)  returns 0x00 (0000ms, 0826ms total)
T2C68 001:324 JLINK_ReadReg(R0)  returns 0x00000000 (0000ms, 0826ms total)
T2C68 001:324 JLINK_WriteMem(0x200001D0, 0x0400 Bytes, ...) - Data: 01 F0 D6 FF 40 20 01 F0 D3 FF BD E8 10 40 80 20 ... -- CPU_WriteMem(1024 bytes @ 0x200001D0)  returns 0x400 (0011ms, 0837ms total)
T2C68 001:335 JLINK_WriteReg(R0, 0x08022400)  returns 0x00 (0000ms, 0837ms total)
T2C68 001:335 JLINK_WriteReg(R1, 0x00000400)  returns 0x00 (0000ms, 0837ms total)
T2C68 001:335 JLINK_WriteReg(R2, 0x200001D0)  returns 0x00 (0000ms, 0837ms total)
T2C68 001:335 JLINK_WriteReg(R3, 0x00000000)  returns 0x00 (0000ms, 0837ms total)
T2C68 001:335 JLINK_WriteReg(R4, 0x00000000)  returns 0x00 (0000ms, 0837ms total)
T2C68 001:335 JLINK_WriteReg(R5, 0x00000000)  returns 0x00 (0000ms, 0837ms total)
T2C68 001:335 JLINK_WriteReg(R6, 0x00000000)  returns 0x00 (0000ms, 0837ms total)
T2C68 001:335 JLINK_WriteReg(R7, 0x00000000)  returns 0x00 (0000ms, 0837ms total)
T2C68 001:335 JLINK_WriteReg(R8, 0x00000000)  returns 0x00 (0000ms, 0837ms total)
T2C68 001:335 JLINK_WriteReg(R9, 0x200001CC)  returns 0x00 (0000ms, 0837ms total)
T2C68 001:335 JLINK_WriteReg(R10, 0x00000000)  returns 0x00 (0000ms, 0837ms total)
T2C68 001:335 JLINK_WriteReg(R11, 0x00000000)  returns 0x00 (0000ms, 0837ms total)
T2C68 001:335 JLINK_WriteReg(R12, 0x00000000)  returns 0x00 (0000ms, 0837ms total)
T2C68 001:335 JLINK_WriteReg(R13 (SP), 0x20001000)  returns 0x00 (0000ms, 0837ms total)
T2C68 001:335 JLINK_WriteReg(R14, 0x20000001)  returns 0x00 (0000ms, 0837ms total)
T2C68 001:335 JLINK_WriteReg(R15 (PC), 0x20000158)  returns 0x00 (0000ms, 0837ms total)
T2C68 001:335 JLINK_WriteReg(XPSR, 0x01000000)  returns 0x00 (0000ms, 0837ms total)
T2C68 001:335 JLINK_WriteReg(MSP, 0x20001000)  returns 0x00 (0000ms, 0837ms total)
T2C68 001:335 JLINK_WriteReg(PSP, 0x20001000)  returns 0x00 (0000ms, 0837ms total)
T2C68 001:335 JLINK_WriteReg(CFBP, 0x00000000)  returns 0x00 (0000ms, 0837ms total)
T2C68 001:335 JLINK_SetBPEx(Addr = 0x20000000, Type = 0xFFFFFFF2)  returns 0x0000000E (0000ms, 0837ms total)
T2C68 001:335 JLINK_Go() -- CPU_ReadMem(4 bytes @ 0xE0001000) (0003ms, 0840ms total)
T2C68 001:338 JLINK_IsHalted()  returns FALSE (0000ms, 0840ms total)
T2C68 001:340 JLINK_IsHalted()  returns FALSE (0000ms, 0840ms total)
T2C68 001:350 JLINK_IsHalted()  returns FALSE (0000ms, 0840ms total)
T2C68 001:352 JLINK_IsHalted()  returns FALSE (0000ms, 0840ms total)
T2C68 001:354 JLINK_IsHalted() -- CPU_ReadMem(2 bytes @ 0x20000000)  returns TRUE (0003ms, 0843ms total)
T2C68 001:357 JLINK_ReadReg(R15 (PC))  returns 0x20000000 (0000ms, 0840ms total)
T2C68 001:357 JLINK_ClrBPEx(BPHandle = 0x0000000E)  returns 0x00 (0000ms, 0840ms total)
T2C68 001:357 JLINK_ReadReg(R0)  returns 0x00000000 (0000ms, 0840ms total)
T2C68 001:358 JLINK_WriteMem(0x200001D0, 0x0400 Bytes, ...) - Data: 88 61 C8 61 08 62 48 63 88 62 C8 62 08 63 88 63 ... -- CPU_WriteMem(1024 bytes @ 0x200001D0)  returns 0x400 (0011ms, 0851ms total)
T2C68 001:369 JLINK_WriteReg(R0, 0x08022800)  returns 0x00 (0000ms, 0851ms total)
T2C68 001:369 JLINK_WriteReg(R1, 0x00000400)  returns 0x00 (0000ms, 0851ms total)
T2C68 001:369 JLINK_WriteReg(R2, 0x200001D0)  returns 0x00 (0000ms, 0851ms total)
T2C68 001:369 JLINK_WriteReg(R3, 0x00000000)  returns 0x00 (0000ms, 0851ms total)
T2C68 001:369 JLINK_WriteReg(R4, 0x00000000)  returns 0x00 (0000ms, 0851ms total)
T2C68 001:369 JLINK_WriteReg(R5, 0x00000000)  returns 0x00 (0000ms, 0851ms total)
T2C68 001:369 JLINK_WriteReg(R6, 0x00000000)  returns 0x00 (0000ms, 0851ms total)
T2C68 001:369 JLINK_WriteReg(R7, 0x00000000)  returns 0x00 (0000ms, 0851ms total)
T2C68 001:369 JLINK_WriteReg(R8, 0x00000000)  returns 0x00 (0000ms, 0851ms total)
T2C68 001:369 JLINK_WriteReg(R9, 0x200001CC)  returns 0x00 (0000ms, 0851ms total)
T2C68 001:369 JLINK_WriteReg(R10, 0x00000000)  returns 0x00 (0000ms, 0851ms total)
T2C68 001:369 JLINK_WriteReg(R11, 0x00000000)  returns 0x00 (0000ms, 0851ms total)
T2C68 001:369 JLINK_WriteReg(R12, 0x00000000)  returns 0x00 (0000ms, 0851ms total)
T2C68 001:369 JLINK_WriteReg(R13 (SP), 0x20001000)  returns 0x00 (0000ms, 0851ms total)
T2C68 001:369 JLINK_WriteReg(R14, 0x20000001)  returns 0x00 (0000ms, 0851ms total)
T2C68 001:369 JLINK_WriteReg(R15 (PC), 0x20000158)  returns 0x00 (0000ms, 0851ms total)
T2C68 001:369 JLINK_WriteReg(XPSR, 0x01000000)  returns 0x00 (0000ms, 0851ms total)
T2C68 001:369 JLINK_WriteReg(MSP, 0x20001000)  returns 0x00 (0000ms, 0851ms total)
T2C68 001:369 JLINK_WriteReg(PSP, 0x20001000)  returns 0x00 (0000ms, 0851ms total)
T2C68 001:369 JLINK_WriteReg(CFBP, 0x00000000)  returns 0x00 (0000ms, 0851ms total)
T2C68 001:369 JLINK_SetBPEx(Addr = 0x20000000, Type = 0xFFFFFFF2)  returns 0x0000000F (0000ms, 0851ms total)
T2C68 001:369 JLINK_Go() -- CPU_ReadMem(4 bytes @ 0xE0001000) (0002ms, 0853ms total)
T2C68 001:371 JLINK_IsHalted()  returns FALSE (0000ms, 0853ms total)
T2C68 001:373 JLINK_IsHalted()  returns FALSE (0000ms, 0853ms total)
T2C68 001:375 JLINK_IsHalted()  returns FALSE (0000ms, 0853ms total)
T2C68 001:377 JLINK_IsHalted()  returns FALSE (0000ms, 0853ms total)
T2C68 001:379 JLINK_IsHalted()  returns FALSE (0000ms, 0853ms total)
T2C68 001:381 JLINK_IsHalted()  returns FALSE (0000ms, 0853ms total)
T2C68 001:383 JLINK_IsHalted()  returns FALSE (0000ms, 0853ms total)
T2C68 001:385 JLINK_IsHalted()  returns FALSE (0000ms, 0853ms total)
T2C68 001:387 JLINK_IsHalted() -- CPU_ReadMem(2 bytes @ 0x20000000)  returns TRUE (0003ms, 0856ms total)
T2C68 001:390 JLINK_ReadReg(R15 (PC))  returns 0x20000000 (0000ms, 0853ms total)
T2C68 001:390 JLINK_ClrBPEx(BPHandle = 0x0000000F)  returns 0x00 (0000ms, 0853ms total)
T2C68 001:390 JLINK_ReadReg(R0)  returns 0x00000000 (0000ms, 0853ms total)
